!Agilent Technologies,N5242A,MY48420904,A.09.90.06
!Agilent N5242A: A.09.90.06
!Date: Sunday, June 02, 2013 20:09:17
!Correction: S11(Full 2 Port(1,4)) 
!S41(Full 2 Port(1,4)) 
!S14(Full 2 Port(1,4)) 
!S44(Full 2 Port(1,4)) 
!S2P File: Measurements: S11, S41, S14, S44:
# Hz S  dB   R 50
10000000 -51.836884 151.39299 -78.780167 -175.93456 -72.734085 90.424141 -45.887177 169.53304
15000000 -52.708557 147.27821 -69.708046 81.620255 -68.464546 79.674927 -46.544182 171.77499
20000000 -49.763409 144.94884 -66.909897 77.31881 -66.529518 80.04052 -45.334797 168.27904
25000000 -49.073013 142.63812 -64.582924 77.339317 -64.559074 77.367126 -44.996471 166.61575
30000000 -50.088421 135.72173 -62.906067 74.992989 -62.921051 75.130821 -45.486664 164.9781
35000000 -50.281456 130.58604 -61.608231 71.795998 -61.584499 71.849968 -45.714783 163.1356
40000000 -49.97625 126.68083 -60.325512 69.210175 -60.462551 69.742592 -45.776745 161.54063
45000000 -49.780128 123.0874 -59.483212 66.69986 -59.46431 66.986771 -45.837284 159.84753
50000000 -49.517807 116.77422 -56.375473 58.370052 -58.866951 67.652092 -45.736275 158.25664
55000000 -49.193512 114.42474 -57.80611 62.401695 -57.799129 62.16209 -46.139114 155.72472
60000000 -48.847641 110.8379 -56.901913 59.501755 -57.084381 59.570049 -46.179222 152.99585
65000000 -48.465122 108.39264 -56.32515 56.768085 -56.289837 56.971622 -46.22438 151.24379
70000000 -48.098057 106.306 -55.644333 54.164864 -55.645615 54.500584 -46.2644 149.33984
75000000 -47.792881 104.36024 -55.096222 51.842804 -55.087524 51.937225 -46.38253 147.78047
80000000 -47.465607 101.39676 -54.610264 49.765736 -54.505478 49.289352 -46.548584 145.8102
85000000 -47.126575 99.880791 -54.031807 46.923725 -54.036366 47.029705 -46.583954 144.43181
90000000 -46.786163 98.34832 -53.625019 43.923153 -53.532139 44.180504 -46.706333 143.33995
95000000 -46.454369 96.779617 -53.100109 41.932125 -53.081192 41.794987 -46.767006 142.69569
100000000 -46.136066 94.892899 -52.61414 39.153812 -52.659283 39.535744 -46.87999 141.43246
105000000 -45.822979 92.904449 -52.249176 36.816055 -52.242439 36.814102 -47.01487 140.97533
110000000 -45.499245 91.037567 -51.846397 34.576977 -51.868397 34.34148 -47.009178 140.51244
115000000 -45.186302 89.057014 -51.488945 31.822624 -51.507263 31.871431 -47.175636 139.2991
120000000 -44.892555 86.922577 -51.090134 29.227585 -51.161655 29.370821 -47.364834 138.36287
125000000 -44.645 84.94529 -50.807301 26.877144 -50.812328 26.834038 -47.70393 137.18355
130000000 -44.313095 83.080215 -50.4832 24.322392 -50.486305 24.341696 -47.901424 135.76935
135000000 -44.003445 81.054298 -50.16803 21.85791 -50.164097 21.873493 -48.127041 134.08281
140000000 -43.666325 79.010368 -49.885666 19.426432 -49.877983 19.480564 -48.332489 132.01578
145000000 -43.334702 77.022926 -49.588352 16.867405 -49.597538 16.880033 -48.64286 129.9881
150000000 -42.991249 75.108131 -49.249653 14.555305 -49.293076 14.486599 -48.83456 127.54169
155000000 -42.641609 73.199799 -49.069138 12.033693 -49.039772 12.037231 -48.978642 124.73554
160000000 -42.306633 71.473106 -48.814716 9.4273357 -48.793919 9.5632172 -49.114082 121.92817
165000000 -41.971573 69.779366 -48.530262 7.0122724 -48.546276 7.0478621 -49.173264 119.11841
170000000 -41.628201 68.247131 -48.309357 4.5970044 -48.305496 4.5168972 -49.155663 116.53235
175000000 -41.287971 66.637115 -48.090069 2.1732986 -48.079811 2.1203804 -49.099083 114.07618
180000000 -40.976273 65.314995 -47.855019 -0.35355836 -47.864655 -0.38565817 -48.977844 112.17678
185000000 -40.6656 63.995396 -47.631138 -2.7658584 -47.633831 -2.7941642 -48.835144 110.40702
190000000 -40.382099 62.785557 -47.440556 -5.4082179 -47.405319 -5.2509179 -48.683945 109.66202
195000000 -40.122829 61.574326 -47.226727 -7.7264414 -47.222725 -7.7536554 -48.530785 108.98409
200000000 -39.872581 60.473061 -47.014053 -10.135385 -47.012489 -10.152001 -48.439064 109.07783
205000000 -39.642838 59.387398 -46.826859 -12.557107 -46.826534 -12.534308 -48.311954 109.2288
210000000 -39.431648 58.261036 -46.623409 -15.084541 -46.630363 -15.062174 -48.228294 109.89397
215000000 -39.255203 57.125912 -46.44416 -17.511566 -46.456154 -17.509161 -48.290424 110.78513
220000000 -39.085487 55.950897 -46.272682 -19.915323 -46.266872 -19.954508 -48.41386 111.84466
225000000 -38.94038 54.778423 -46.092762 -22.412014 -46.109489 -22.374336 -48.649311 112.91885
230000000 -38.811119 53.559399 -45.912163 -24.849232 -45.926491 -24.857462 -48.95974 114.43871
235000000 -38.690296 52.232338 -45.754944 -27.373388 -45.758469 -27.288067 -49.359234 115.64794
240000000 -38.592583 50.853497 -45.592125 -29.692198 -45.59351 -29.668436 -49.809284 117.08755
245000000 -38.488667 49.430305 -45.436024 -32.173458 -45.435543 -32.159378 -50.401447 118.70387
250000000 -38.401402 47.892067 -45.306316 -34.555836 -45.27618 -34.62315 -51.185394 120.12789
255000000 -38.288734 46.416492 -45.150536 -37.002617 -45.137829 -37.090694 -51.797882 120.3783
260000000 -38.20993 44.831486 -44.998737 -39.496159 -44.987286 -39.433083 -52.676567 121.082
265000000 -38.09227 43.148792 -44.843395 -41.992859 -44.835484 -41.879791 -53.621517 120.15919
270000000 -38.001171 41.530674 -44.705463 -44.33551 -44.695652 -44.412395 -54.859924 118.25956
275000000 -37.91264 39.824333 -44.570274 -46.78088 -44.55389 -46.831089 -56.098606 114.66737
280000000 -37.814323 38.173588 -44.422218 -49.236099 -44.424278 -49.306522 -57.434307 108.11961
285000000 -37.707649 36.553123 -44.303123 -51.702789 -44.285885 -51.785633 -58.623661 98.779831
290000000 -37.610493 34.980808 -44.156803 -54.147884 -44.158459 -54.17461 -59.314289 86.192154
295000000 -37.49728 33.470474 -44.02354 -56.686867 -44.029961 -56.561123 -59.307262 72.705032
300000000 -37.397129 32.039974 -43.898952 -59.058933 -43.893982 -59.073727 -58.745327 61.363834
305000000 -37.318947 30.618652 -43.791218 -61.545074 -43.78112 -61.521091 -57.69698 53.156681
310000000 -37.230869 29.195372 -43.676136 -64.050888 -43.661575 -63.963589 -56.835136 48.003685
315000000 -37.161549 27.998037 -43.549679 -66.530022 -43.543755 -66.513893 -55.908695 45.125889
320000000 -37.083336 26.72434 -43.449005 -68.991837 -43.437267 -68.956032 -55.138573 44.126484
325000000 -37.021137 25.533426 -43.328865 -71.451263 -43.317005 -71.429802 -54.548126 44.877209
330000000 -36.969692 24.422508 -43.219109 -73.941681 -43.205856 -73.931854 -54.11113 45.490326
335000000 -36.926479 23.251781 -43.112396 -76.438797 -43.103172 -76.380821 -53.884941 47.375282
340000000 -36.902607 22.154276 -43.008064 -78.886467 -42.997807 -78.859207 -53.773506 49.319885
345000000 -36.877205 21.02191 -42.907619 -81.336708 -42.9142 -81.366829 -53.740864 51.80357
350000000 -36.85693 19.880163 -42.798569 -83.757835 -42.806046 -83.845451 -53.800552 54.999458
355000000 -36.838177 18.747305 -42.71434 -86.338013 -42.700172 -86.329308 -54.128006 57.516758
360000000 -36.834049 17.597021 -42.619171 -88.832092 -42.610321 -88.795906 -54.43689 60.903061
365000000 -36.826408 16.47331 -42.531994 -91.289406 -42.515652 -91.302643 -54.880802 64.153488
370000000 -36.823132 15.327098 -42.43631 -93.801567 -42.425213 -93.764137 -55.411903 67.099831
375000000 -36.811401 14.189838 -42.352398 -96.296577 -42.343193 -96.300201 -56.077858 70.60125
380000000 -36.808952 13.013575 -42.268986 -98.780045 -42.260288 -98.793053 -56.75597 72.915184
385000000 -36.793369 11.909945 -42.189575 -101.2765 -42.187046 -101.30162 -57.636627 74.907852
390000000 -36.780903 10.741283 -42.107246 -103.76865 -42.107517 -103.77489 -58.520245 76.333092
395000000 -36.76376 9.6279678 -42.038742 -106.31932 -42.027126 -106.23935 -59.697105 75.784294
400000000 -36.734013 8.5743351 -41.954765 -108.77599 -41.949905 -108.78915 -60.447315 75.675034
405000000 -36.706261 7.56004 -41.885483 -111.31301 -41.880615 -111.34258 -61.446957 72.554222
410000000 -36.679878 6.4707189 -41.819881 -113.78537 -41.805943 -113.8082 -62.224209 67.915787
415000000 -36.657646 5.5481501 -41.748611 -116.29054 -41.740223 -116.29124 -62.655922 62.652931
420000000 -36.625679 4.6137452 -41.684311 -118.79808 -41.67506 -118.84417 -62.584545 58.384937
425000000 -36.596493 3.7607081 -41.629082 -121.29773 -41.620255 -121.29932 -61.901943 58.729572
430000000 -36.569267 2.9308107 -41.564682 -123.77373 -41.557785 -123.78259 -61.105442 58.36047
435000000 -36.540119 2.1239429 -41.50948 -126.33894 -41.508575 -126.33044 -60.106178 59.665649
440000000 -36.512623 1.4197447 -41.458019 -128.8212 -41.444111 -128.77736 -59.135174 62.753178
445000000 -36.483734 0.67994851 -41.406631 -131.28098 -41.402481 -131.31128 -58.232838 65.962921
450000000 -36.459652 -0.12058488 -41.346775 -133.76085 -41.342266 -133.79398 -57.173775 69.839127
455000000 -36.447353 -0.82995462 -41.305645 -136.28958 -41.307915 -136.28482 -56.466103 73.113762
460000000 -36.43708 -1.5416259 -41.266285 -138.76628 -41.259869 -138.74661 -55.709919 76.951111
465000000 -36.42281 -2.3055289 -41.225525 -141.2354 -41.214581 -141.24084 -54.975014 81.268799
470000000 -36.412609 -3.0967965 -41.18055 -143.70638 -41.179535 -143.71213 -54.289074 85.665657
475000000 -36.393593 -3.9095061 -41.145576 -146.18767 -41.144203 -146.17989 -53.612534 90.345184
480000000 -36.394939 -4.7075596 -41.1147 -148.63226 -41.103897 -148.65208 -52.984573 94.374947
485000000 -36.387287 -5.5655613 -41.068531 -151.0836 -41.069885 -151.04955 -52.409264 98.235107
490000000 -36.378338 -6.484211 -41.047295 -153.53096 -41.038193 -153.48877 -51.828873 102.16
495000000 -36.371616 -7.4219699 -41.01852 -156.01099 -41.012821 -155.96245 -51.287022 105.30552
500000000 -36.362652 -8.4012461 -40.991238 -158.43648 -40.984264 -158.36337 -50.840427 108.13931
505000000 -36.33773 -9.3451605 -40.95079 -160.8924 -40.957039 -160.82236 -50.318085 110.30496
510000000 -36.316135 -10.427682 -40.930264 -163.22319 -40.936947 -163.26111 -50.015892 112.12481
515000000 -36.295872 -11.496873 -40.907082 -165.6965 -40.911217 -165.67001 -49.841408 113.59909
520000000 -36.283779 -12.590784 -40.882698 -168.14709 -40.893013 -168.02647 -49.673519 114.68363
525000000 -36.250683 -13.76078 -40.862801 -170.5054 -40.868797 -170.42957 -49.539909 115.21568
530000000 -36.23378 -14.966144 -40.850636 -172.86832 -40.856201 -172.83684 -49.476364 115.34585
535000000 -36.199722 -16.076124 -40.839352 -175.24023 -40.838902 -175.25243 -49.375237 114.68607
540000000 -36.175938 -17.222776 -40.823158 -177.65836 -40.818958 -177.54959 -49.270443 113.60472
545000000 -36.149326 -18.417795 -40.808846 -179.95313 -40.809742 -179.95059 -49.087841 112.14174
550000000 -36.118164 -19.567238 -40.801117 177.65977 -40.799866 177.72795 -48.848026 110.35397
555000000 -36.097641 -20.800861 -40.792141 175.33536 -40.797058 175.3555 -48.558865 108.30492
560000000 -36.078022 -21.940371 -40.778759 173.01025 -40.782921 173.06029 -48.242069 106.4046
565000000 -36.059418 -23.110716 -40.77092 170.6956 -40.774975 170.73201 -47.84639 104.4614
570000000 -36.055817 -24.324846 -40.760281 168.3876 -40.761978 168.40857 -47.466957 102.74924
575000000 -36.05267 -25.509081 -40.751766 166.10703 -40.752674 166.12173 -47.048519 100.98663
580000000 -36.052052 -26.7421 -40.741688 163.84305 -40.755665 163.89691 -46.621647 99.797829
585000000 -36.06937 -27.984121 -40.740688 161.52728 -40.745052 161.57683 -46.225418 98.797516
590000000 -36.085094 -29.231382 -40.733135 159.22812 -40.73859 159.32104 -45.811676 98.260139
595000000 -36.107586 -30.46846 -40.732094 157.02141 -40.73365 157.06241 -45.409748 97.778458
600000000 -36.141621 -31.763161 -40.72504 154.78386 -40.734779 154.80099 -45.002178 97.554726
605000000 -36.174946 -33.091434 -40.723587 152.5251 -40.732056 152.54947 -44.617134 97.647301
610000000 -36.232685 -34.494644 -40.721268 150.31749 -40.732746 150.37363 -44.21463 97.829468
615000000 -36.282356 -35.877029 -40.726601 148.10863 -40.728008 148.11386 -43.888149 98.046509
620000000 -36.337547 -37.325668 -40.714901 145.87782 -40.724731 145.92424 -43.588837 98.255737
625000000 -36.393974 -38.814831 -40.709644 143.6974 -40.711933 143.7336 -43.37051 98.491997
630000000 -36.467422 -40.35339 -40.714203 141.47018 -40.720295 141.48911 -43.216301 98.607872
635000000 -36.539822 -41.930138 -40.710438 139.32869 -40.714977 139.32721 -43.102203 98.751717
640000000 -36.618782 -43.528999 -40.709805 137.13521 -40.710789 137.21419 -43.044586 98.607849
645000000 -36.698769 -45.132713 -40.703224 134.99039 -40.708782 135.01338 -43.035828 98.331078
650000000 -36.785122 -46.795311 -40.698765 132.80969 -40.69976 132.88164 -43.061085 97.746025
655000000 -36.873508 -48.404285 -40.69841 130.69299 -40.69873 130.67886 -43.050789 97.025742
660000000 -36.967022 -50.083874 -40.693256 128.53975 -40.698261 128.54936 -43.046875 95.951286
665000000 -37.067142 -51.789532 -40.687668 126.375 -40.694721 126.40349 -43.047009 94.60527
670000000 -37.176926 -53.540195 -40.688568 124.26502 -40.687878 124.2658 -42.987106 92.99913
675000000 -37.287834 -55.207588 -40.682346 122.12836 -40.689877 122.15211 -42.924526 91.14296
680000000 -37.401531 -56.883015 -40.676399 120.00423 -40.679642 120.08287 -42.788292 89.231537
685000000 -37.521824 -58.59008 -40.661842 117.92316 -40.665848 117.8974 -42.64706 87.086281
690000000 -37.656509 -60.384201 -40.659126 115.81767 -40.661858 115.84254 -42.474941 85.136581
695000000 -37.796432 -62.127502 -40.652828 113.69362 -40.655624 113.72545 -42.265835 83.213058
700000000 -37.932915 -63.917423 -40.648373 111.61232 -40.646091 111.67802 -42.0415 81.455528
705000000 -38.087742 -65.668762 -40.632927 109.51263 -40.645096 109.55349 -41.805603 79.763855
710000000 -38.244339 -67.487152 -40.624573 107.43001 -40.631577 107.48273 -41.573841 78.390755
715000000 -38.423912 -69.320107 -40.616085 105.35803 -40.619732 105.37054 -41.343002 77.099731
720000000 -38.615688 -71.162506 -40.604698 103.20959 -40.608341 103.24225 -41.113785 76.061134
725000000 -38.803436 -73.080147 -40.590294 101.15531 -40.595772 101.17386 -40.859821 75.210114
730000000 -39.010281 -74.951584 -40.579884 99.113701 -40.581089 99.139763 -40.624737 74.614738
735000000 -39.225346 -76.909935 -40.565033 96.996101 -40.568062 97.025276 -40.413887 74.024185
740000000 -39.457386 -78.929474 -40.559753 94.880478 -40.555546 94.961571 -40.202991 73.54435
745000000 -39.699715 -81.042801 -40.537598 92.855003 -40.543251 92.850075 -40.022953 73.188286
750000000 -39.953064 -83.162079 -40.519024 90.768723 -40.522717 90.79776 -39.857967 72.816902
755000000 -40.218239 -85.329613 -40.505795 88.686859 -40.509987 88.722214 -39.722534 72.443146
760000000 -40.490925 -87.521172 -40.48819 86.590927 -40.494972 86.665932 -39.615578 71.937073
765000000 -40.767467 -89.898354 -40.472912 84.536674 -40.479004 84.552818 -39.540455 71.421066
770000000 -41.051117 -92.353577 -40.450634 82.437454 -40.451286 82.456581 -39.48563 70.734863
775000000 -41.357922 -94.839935 -40.432583 80.342567 -40.435947 80.366798 -39.441704 69.948608
780000000 -41.650307 -97.458344 -40.409199 78.249329 -40.4147 78.249527 -39.40683 69.02813
785000000 -41.965916 -100.16936 -40.389484 76.146484 -40.393978 76.163086 -39.366791 67.921837
790000000 -42.266457 -102.94583 -40.369507 74.084908 -40.372078 74.048508 -39.330406 66.746216
795000000 -42.599716 -105.90957 -40.345989 71.951141 -40.351677 71.962677 -39.28418 65.357132
800000000 -42.897659 -108.96977 -40.326908 69.83316 -40.32687 69.861588 -39.213825 63.948509
805000000 -43.21806 -112.14279 -40.297394 67.725983 -40.301849 67.721916 -39.12804 62.431652
810000000 -43.53017 -115.40222 -40.272774 65.570633 -40.279213 65.62825 -39.034252 60.849098
815000000 -43.857002 -118.79878 -40.251965 63.472225 -40.254093 63.486092 -38.920441 59.205448
820000000 -44.156002 -122.36415 -40.22673 61.318836 -40.228359 61.356163 -38.788712 57.628689
825000000 -44.469501 -125.93221 -40.202503 59.162792 -40.210419 59.233238 -38.639011 56.06694
830000000 -44.803471 -129.60654 -40.175064 57.023949 -40.18095 57.03109 -38.476097 54.574211
835000000 -45.123234 -133.53062 -40.157291 54.874859 -40.152748 54.867722 -38.291828 53.20179
840000000 -45.450817 -137.5564 -40.133736 52.690277 -40.131172 52.734024 -38.093899 51.922462
845000000 -45.77346 -141.72929 -40.099831 50.493923 -40.107967 50.533432 -37.90242 50.815807
850000000 -46.093124 -146.24779 -40.072983 48.30949 -40.081158 48.364544 -37.707031 49.787701
855000000 -46.398815 -150.94907 -40.049061 46.164803 -40.052711 46.157848 -37.522446 48.898876
860000000 -46.683945 -155.76596 -40.029083 43.913082 -40.029949 43.989628 -37.346172 48.110275
865000000 -46.94416 -160.83424 -40.004463 41.728382 -40.010277 41.771885 -37.184036 47.346928
870000000 -47.161896 -166.28433 -39.980686 39.521679 -39.985626 39.535175 -37.029739 46.654873
875000000 -47.359791 -171.58899 -39.959888 37.27338 -39.962173 37.2948 -36.913277 45.966949
880000000 -47.480362 -177.28299 -39.932961 35.010094 -39.947403 35.050491 -36.815422 45.288685
885000000 -47.568249 177.11179 -39.912571 32.776516 -39.924252 32.773689 -36.730389 44.569832
890000000 -47.567104 171.50743 -39.896866 30.515299 -39.902622 30.529043 -36.662891 43.751419
895000000 -47.533794 165.92389 -39.874763 28.255564 -39.879967 28.271065 -36.616913 42.963741
900000000 -47.410881 160.39713 -39.858265 25.954437 -39.865585 25.980436 -36.568523 42.030224
905000000 -47.264927 155.28317 -39.843033 23.677158 -39.850677 23.707376 -36.52285 41.04113
910000000 -47.049213 150.25186 -39.826397 21.358877 -39.830879 21.396055 -36.471893 39.99942
915000000 -46.803406 145.58083 -39.81715 19.062164 -39.819626 19.107687 -36.431408 38.812874
920000000 -46.526299 141.27284 -39.807014 16.729052 -39.809689 16.796686 -36.384109 37.532356
925000000 -46.242126 137.07437 -39.798096 14.422273 -39.808556 14.465194 -36.335884 36.177177
930000000 -45.961597 133.46091 -39.791275 12.078544 -39.79615 12.131491 -36.290287 34.693573
935000000 -45.672062 129.68471 -39.785873 9.7447586 -39.794315 9.7796917 -36.235146 33.159435
940000000 -45.418194 126.44923 -39.783463 7.4062629 -39.786903 7.4567976 -36.183243 31.56296
945000000 -45.133274 123.14248 -39.786987 5.0475864 -39.785671 5.1062655 -36.110966 29.967964
950000000 -44.85421 119.98057 -39.784359 2.7156773 -39.787876 2.7649834 -36.032074 28.388186
955000000 -44.566933 116.83043 -39.793259 0.36089852 -39.79958 0.440301 -35.934746 26.844324
960000000 -44.297459 113.81822 -39.796932 -1.9633595 -39.806309 -1.9409338 -35.820301 25.417036
965000000 -44.022331 110.78183 -39.811806 -4.315259 -39.815445 -4.2665615 -35.689278 24.093697
970000000 -43.705868 107.93398 -39.819916 -6.6609545 -39.830475 -6.6263614 -35.561035 22.861475
975000000 -43.403339 105.1664 -39.841946 -9.003891 -39.845417 -8.9850712 -35.417671 21.796337
980000000 -43.089592 102.51725 -39.862858 -11.351052 -39.860817 -11.331773 -35.283833 20.774244
985000000 -42.768929 100.03263 -39.881039 -13.677849 -39.88842 -13.640715 -35.151592 19.952942
990000000 -42.437279 97.792221 -39.903419 -15.993189 -39.915642 -16.012148 -35.040718 19.116217
995000000 -42.106426 95.559387 -39.932964 -18.337425 -39.936562 -18.323544 -34.943981 18.34004
1000000000 -41.787395 93.536972 -39.960678 -20.668919 -39.97015 -20.587465 -34.870026 17.576
1005000000 -41.480282 91.660019 -39.987122 -22.949413 -40.004986 -22.962364 -34.823452 16.770645
1010000000 -41.162209 89.875526 -40.029251 -25.241621 -40.035839 -25.224165 -34.788971 16.010126
1015000000 -40.875828 88.078392 -40.063908 -27.54208 -40.071396 -27.471203 -34.769932 15.264986
1020000000 -40.572266 86.489464 -40.104389 -29.803251 -40.109333 -29.747227 -34.759903 14.488223
1025000000 -40.291435 84.831459 -40.144222 -32.086884 -40.151424 -32.041229 -34.755825 13.674133
1030000000 -40.020309 83.26313 -40.190643 -34.307667 -40.194565 -34.28891 -34.750977 12.865456
1035000000 -39.750988 81.684586 -40.235924 -36.503353 -40.239403 -36.499477 -34.746025 12.04158
1040000000 -39.481987 80.049179 -40.28434 -38.749153 -40.286434 -38.699982 -34.735802 11.156842
1045000000 -39.238518 78.380913 -40.336151 -40.953861 -40.335777 -40.906284 -34.722023 10.249138
