!Keysight Technologies,N5247A,US56070658,Z.10.62.16
!Date: Tuesday, August 15, 2017 17:07:40
!Correction: S11(Full 2 Port(1,2)) 
!S21(Full 2 Port(1,2)) 
!S12(Full 2 Port(1,2)) 
!S22(Full 2 Port(1,2)) 
!S2P File: Measurements: S11, S21, S12, S22:
# Hz S  dB   R 50
3000000000 -21.710375 64.993805 -44.670486 -175.1338 -44.718925 -174.92018 -28.683296 4.9738102
3005000000 -21.5975 63.039532 -44.705433 -176.71605 -44.809212 -177.12698 -28.660192 4.5436592
3010000000 -21.501778 61.288345 -44.698494 -178.45265 -44.652641 -178.25999 -28.709679 4.17909
3015000000 -21.408581 59.465736 -44.788563 -179.97348 -44.648689 179.9796 -28.696699 3.5316145
3020000000 -21.309494 57.612709 -44.756222 178.21106 -44.707466 178.25734 -28.677443 3.6163893
3025000000 -21.230442 55.925945 -44.707352 176.68671 -44.762367 176.68282 -28.671326 3.1836238
3030000000 -21.14637 54.091297 -44.786411 174.56714 -44.762085 175.38716 -28.679085 2.6584454
3035000000 -21.090702 52.393078 -44.783012 173.06418 -44.791424 173.41124 -28.640673 2.3059821
3040000000 -21.007694 50.694431 -44.828514 171.13451 -44.798271 171.40761 -28.63069 2.1599681
3045000000 -20.936543 48.934326 -44.649269 169.4493 -44.843456 169.8262 -28.596798 1.8535808
3050000000 -20.873777 47.198322 -44.845337 167.87933 -44.919277 168.19391 -28.560463 1.6443034
3055000000 -20.832582 45.592388 -44.833633 166.33559 -44.812145 166.26831 -28.586357 1.4014554
3060000000 -20.772242 43.848209 -44.79966 164.59558 -44.80397 164.78183 -28.577158 1.215624
3065000000 -20.703691 42.144783 -44.838711 162.6573 -44.818577 163.09106 -28.547417 1.2435873
3070000000 -20.659122 40.447273 -44.868401 161.26556 -44.797291 161.61304 -28.533745 0.99438763
3075000000 -20.618393 38.690781 -44.846352 159.52518 -44.844254 160.06775 -28.540606 0.98053324
3080000000 -20.560068 37.139606 -44.835835 158.06136 -44.830338 158.1586 -28.529774 1.0051128
3085000000 -20.510275 35.406509 -44.85041 156.464 -44.850014 156.03171 -28.511518 1.0397737
3090000000 -20.470892 33.757069 -44.833294 154.47893 -44.929794 154.42934 -28.574217 1.0906216
3095000000 -20.425829 32.148857 -44.862103 152.53038 -44.855927 153.02051 -28.553011 0.77517503
3100000000 -20.390221 30.51828 -44.957981 151.39082 -44.866722 151.4525 -28.564959 0.79770333
3105000000 -20.340734 28.806437 -44.919945 149.59528 -44.922829 149.73923 -28.601557 0.8021391
3110000000 -20.28981 27.276201 -44.914383 148.38054 -44.883152 148.49675 -28.614227 0.76067781
3115000000 -20.249187 25.761833 -44.928036 146.59009 -44.918514 146.63556 -28.641788 0.3942686
3120000000 -20.217329 24.127295 -44.919689 144.80333 -44.951065 145.29012 -28.683735 0.42591637
3125000000 -20.178707 22.692797 -44.966721 143.46669 -44.999443 143.51253 -28.724476 -0.042201847
3130000000 -20.149021 21.194412 -44.996136 141.81566 -44.976631 141.65271 -28.786936 -0.08277794
3135000000 -20.099487 19.702656 -45.077549 139.6747 -45.136642 139.83476 -28.829256 -0.50758553
3140000000 -20.064011 18.237724 -45.019585 139.24751 -44.92189 138.41843 -28.81032 -1.0232811
3145000000 -20.052551 16.937695 -44.992821 136.76033 -44.997173 136.85103 -28.877813 -1.334976
3150000000 -20.040913 15.385073 -45.024727 135.23732 -44.999992 135.44289 -28.888973 -1.9761109
3155000000 -20.02256 14.030443 -45.08979 133.84286 -45.11911 133.58604 -28.909473 -2.3164723
3160000000 -19.991636 12.614144 -45.121132 131.79814 -45.032639 132.43776 -28.910383 -2.92225
3165000000 -19.999517 11.286247 -45.09341 130.24188 -45.068668 130.90054 -28.912495 -3.4437528
3170000000 -19.989765 9.8092737 -45.083092 129.19655 -45.108047 128.9498 -28.932871 -3.7596059
3175000000 -19.972769 8.5192499 -45.025143 127.46879 -45.065136 127.26472 -28.927704 -4.045229
3180000000 -19.990395 7.1874609 -45.089737 126.35402 -45.109322 125.52383 -28.901142 -4.7194042
3185000000 -19.977251 5.7936015 -45.051197 124.32898 -45.130405 124.54008 -28.933466 -4.7865314
3190000000 -19.983828 4.4806905 -45.177177 122.76982 -45.151985 122.98089 -28.913401 -5.3039861
3195000000 -19.982832 3.1036468 -45.12896 121.62756 -45.151764 121.18596 -28.897694 -5.7384224
3200000000 -19.989315 1.7311362 -45.177895 119.70441 -45.182533 119.50531 -28.896086 -5.9130707
3205000000 -19.9984 0.3441495 -45.216812 118.11565 -45.179165 117.83685 -28.871445 -6.0244842
3210000000 -19.988972 -0.97037578 -45.207153 116.45001 -45.173195 116.66974 -28.88203 -6.3183775
3215000000 -20.007751 -2.3092594 -45.179024 114.84765 -45.234097 115.01522 -28.848377 -6.4184036
3220000000 -20.013044 -3.5795205 -45.11895 113.68417 -45.155643 113.21858 -28.843765 -6.581233
3225000000 -20.030556 -4.9429832 -45.212955 112.14722 -45.258926 111.7851 -28.871208 -6.8518195
3230000000 -20.032166 -6.1956596 -45.232952 110.83678 -45.208874 110.57541 -28.874119 -6.8441701
3235000000 -20.027739 -7.5316215 -45.200153 109.03692 -45.258339 109.18308 -28.92524 -6.8924832
3240000000 -20.035702 -8.735095 -45.178123 107.63564 -45.247372 107.77509 -28.945414 -7.18961
3245000000 -20.052616 -10.033133 -45.260239 105.61426 -45.222939 105.99106 -28.941177 -7.4706092
3250000000 -20.055983 -11.290051 -45.305588 104.13503 -45.219627 104.12897 -29.001612 -7.4481678
3255000000 -20.07954 -12.446852 -45.286118 102.63484 -45.302349 102.68372 -29.035023 -7.7202039
3260000000 -20.083918 -13.575398 -45.205544 101.88309 -45.256187 101.15499 -29.074596 -7.8983669
3265000000 -20.107777 -14.777956 -45.320377 99.743027 -45.346302 99.898499 -29.176689 -8.258091
3270000000 -20.126507 -15.903394 -45.402771 98.392929 -45.329147 98.03968 -29.212009 -8.8105183
3275000000 -20.157827 -16.970407 -45.29451 97.191277 -45.298637 97.12516 -29.239155 -9.0750589
3280000000 -20.18359 -18.150324 -45.261383 95.423569 -45.235542 95.15625 -29.259232 -9.4477673
3285000000 -20.215143 -19.258598 -45.290905 93.924171 -45.30872 94.513374 -29.315458 -9.8056097
3290000000 -20.236473 -20.377678 -45.275761 92.513847 -45.276257 93.08429 -29.319374 -10.514517
3295000000 -20.273857 -21.541918 -45.306114 90.998024 -45.16663 91.171303 -29.393059 -10.975807
3300000000 -20.309464 -22.660843 -45.292343 89.650192 -45.325932 89.167381 -29.394041 -11.426512
3305000000 -20.354233 -23.700706 -45.320938 88.363693 -45.22768 88.731323 -29.421764 -12.157184
3310000000 -20.402971 -24.833517 -45.289608 86.605438 -45.290787 86.426857 -29.427143 -12.668797
3315000000 -20.420002 -25.985022 -45.270645 85.38147 -45.25362 84.795845 -29.438448 -13.221369
3320000000 -20.465693 -27.089815 -45.238964 83.716873 -45.326035 83.942238 -29.475502 -13.526153
3325000000 -20.500887 -28.187693 -45.238285 82.334869 -45.26614 81.834373 -29.501781 -13.903811
3330000000 -20.524504 -29.364323 -45.264084 80.789993 -45.25787 80.809738 -29.48385 -14.346529
3335000000 -20.574158 -30.41391 -45.272957 79.087914 -45.203938 79.433655 -29.482792 -14.770227
3340000000 -20.613617 -31.521378 -45.286118 77.459763 -45.271942 77.797394 -29.532673 -15.059251
3345000000 -20.631884 -32.641315 -45.207787 76.007339 -45.213627 76.440994 -29.496531 -15.209018
3350000000 -20.673487 -33.752773 -45.212383 74.950928 -45.23901 74.713196 -29.531473 -15.436556
3355000000 -20.697025 -34.796913 -45.200218 73.019997 -45.11005 73.177666 -29.542625 -15.700368
3360000000 -20.722445 -35.886166 -45.23859 71.851318 -45.245903 71.640129 -29.581957 -16.046324
3365000000 -20.763006 -36.815483 -45.219177 70.243538 -45.188293 70.343819 -29.584126 -16.252979
3370000000 -20.783741 -37.907661 -45.198765 69.192436 -45.203644 68.938278 -29.641993 -16.590343
3375000000 -20.810068 -38.886646 -45.170609 67.122696 -45.17437 67.06897 -29.680099 -16.688452
3380000000 -20.840017 -39.873512 -45.135025 66.460976 -45.180305 65.816193 -29.740509 -16.617327
3385000000 -20.861988 -40.763084 -45.132648 64.440491 -45.105511 64.625069 -29.800911 -17.244591
3390000000 -20.902109 -41.793568 -45.135803 62.752892 -45.146141 63.126945 -29.824944 -17.867399
3395000000 -20.932911 -42.624489 -45.150398 61.188816 -45.124828 60.890911 -29.878706 -18.008581
3400000000 -20.975008 -43.508007 -45.090561 60.440357 -45.083576 59.748543 -29.949587 -18.229685
3405000000 -21.012079 -44.455173 -45.089355 58.50951 -45.116302 58.269466 -30.037193 -18.769388
3410000000 -21.057844 -45.393375 -45.134941 56.627926 -45.049366 56.92593 -30.077276 -19.276941
3415000000 -21.098885 -46.259087 -44.99498 55.19558 -45.007763 54.897373 -30.105389 -19.633753
3420000000 -21.127726 -47.294655 -45.060905 53.788418 -45.003929 54.247513 -30.207592 -20.168613
3425000000 -21.185045 -48.090164 -45.070217 52.424782 -44.99435 52.255955 -30.264803 -20.523848
3430000000 -21.229548 -48.979771 -45.029957 51.131454 -45.05891 50.811176 -30.306465 -21.072264
3435000000 -21.273968 -49.971432 -44.991203 49.603374 -44.997379 49.191299 -30.38867 -21.843506
3440000000 -21.313646 -50.903667 -44.973141 47.530258 -44.846497 47.979492 -30.38048 -22.567215
3445000000 -21.360476 -51.887493 -44.851341 46.377903 -44.799355 46.18248 -30.442411 -23.087099
3450000000 -21.403673 -52.835239 -44.904079 44.679024 -44.933556 44.714252 -30.476183 -23.796051
3455000000 -21.440929 -53.830372 -44.907204 43.270111 -44.901623 42.966122 -30.503664 -24.02393
3460000000 -21.471876 -54.834255 -44.87508 41.82687 -44.883259 42.116348 -30.531464 -24.691668
3465000000 -21.511267 -55.873249 -44.864586 40.016605 -44.81105 39.857338 -30.582094 -25.209354
3470000000 -21.550911 -56.902607 -44.816448 38.554436 -44.775543 38.384155 -30.604551 -25.540407
3475000000 -21.577093 -57.961353 -44.810688 36.820675 -44.781155 36.855625 -30.694593 -26.038935
3480000000 -21.60321 -58.943367 -44.77853 35.179348 -44.787365 35.549366 -30.700462 -26.33128
3485000000 -21.616152 -59.943317 -44.787903 33.941696 -44.749378 34.162113 -30.776033 -26.569889
3490000000 -21.640711 -60.923546 -44.747993 32.054008 -44.702377 32.097569 -30.835743 -27.049063
3495000000 -21.655466 -61.831436 -44.635151 30.693241 -44.773224 30.985601 -30.841263 -27.465212
3500000000 -21.672354 -62.849907 -44.637211 28.956371 -44.666962 29.418247 -30.88061 -27.795021
3505000000 -21.694826 -63.799938 -44.660004 27.12159 -44.660084 27.675858 -30.964151 -28.256466
3510000000 -21.706203 -64.767593 -44.67667 26.330217 -44.638638 26.207012 -31.040308 -28.557379
3515000000 -21.736183 -65.705482 -44.595833 24.522261 -44.616127 24.432299 -31.093456 -28.905872
3520000000 -21.733719 -66.677254 -44.63546 22.727198 -44.617676 22.797421 -31.118731 -29.266344
3525000000 -21.756891 -67.546165 -44.570709 21.286673 -44.551159 20.763947 -31.202726 -29.696028
3530000000 -21.776245 -68.526672 -44.489613 19.865721 -44.5508 19.247562 -31.262281 -30.202473
3535000000 -21.801868 -69.466011 -44.593777 17.674046 -44.456596 18.201839 -31.331692 -30.635107
3540000000 -21.824396 -70.343964 -44.466415 16.476477 -44.434082 16.326527 -31.436831 -30.866468
3545000000 -21.854887 -71.26088 -44.467213 15.068024 -44.443794 14.748298 -31.510345 -31.60775
3550000000 -21.876293 -72.227867 -44.423786 13.035347 -44.417355 12.961965 -31.525053 -32.365143
3555000000 -21.905413 -73.244026 -44.382668 11.779358 -44.343834 11.509815 -31.589071 -32.436977
3560000000 -21.940788 -74.167717 -44.369572 10.071101 -44.3633 9.9312658 -31.659594 -32.997337
3565000000 -21.979044 -75.180023 -44.330654 8.3548069 -44.347546 8.2230282 -31.785641 -33.735504
3570000000 -22.001316 -76.323776 -44.322639 6.704381 -44.318985 6.5463295 -31.78417 -34.193539
3575000000 -22.036394 -77.26992 -44.317673 4.9070935 -44.327778 4.7523351 -31.904461 -34.822044
3580000000 -22.06546 -78.381622 -44.334362 3.190038 -44.271873 3.2345335 -31.969193 -35.082779
3585000000 -22.102917 -79.534195 -44.361492 1.4456469 -44.292866 1.69608 -32.051731 -35.820488
3590000000 -22.128019 -80.691025 -44.240295 0.30440146 -44.244747 0.41066682 -32.089016 -36.207489
3595000000 -22.166639 -81.86557 -44.217449 -1.7051442 -44.20895 -1.6448548 -32.181068 -36.751293
3600000000 -22.183277 -83.101242 -44.225422 -3.4323316 -44.21125 -3.3162401 -32.261322 -37.250397
3605000000 -22.191076 -84.305717 -44.186771 -4.839869 -44.184757 -4.8527765 -32.365925 -37.480698
3610000000 -22.234167 -85.553413 -44.158909 -6.5463395 -44.176449 -6.8730645 -32.422916 -37.866394
3615000000 -22.249414 -86.674759 -44.125 -8.6390285 -44.115646 -8.2580843 -32.54705 -38.19611
3620000000 -22.256533 -87.981537 -44.179329 -9.880723 -44.088909 -9.9204617 -32.591061 -38.866028
3625000000 -22.264013 -89.153419 -44.11356 -11.585203 -44.118767 -11.714737 -32.759644 -39.269787
3630000000 -22.27564 -90.445793 -44.061985 -13.327152 -44.075226 -13.331459 -32.814915 -39.668335
3635000000 -22.290016 -91.61306 -44.122063 -14.978764 -44.036308 -14.92472 -32.983093 -39.965652
3640000000 -22.308384 -92.766502 -44.048531 -16.64986 -44.009609 -16.903036 -33.123394 -40.785358
3645000000 -22.331392 -94.045715 -44.074547 -18.163197 -43.995903 -18.510506 -33.209972 -41.132568
3650000000 -22.35022 -95.315544 -43.999153 -19.984915 -43.979317 -19.820971 -33.395378 -41.652687
3655000000 -22.376226 -96.536804 -43.985893 -21.595139 -43.971436 -22.004002 -33.437996 -42.623318
3660000000 -22.399067 -97.696365 -43.939217 -23.507877 -43.982815 -23.496796 -33.618389 -43.097794
3665000000 -22.413809 -98.922874 -43.912334 -25.532236 -43.954803 -25.100626 -33.681145 -43.810478
3670000000 -22.43815 -100.21593 -43.985569 -26.706665 -43.931252 -26.85738 -33.811333 -44.604462
3675000000 -22.477428 -101.44305 -43.956707 -28.761845 -43.913166 -28.515408 -33.891903 -45.500889
3680000000 -22.506086 -102.68033 -43.882889 -30.752678 -43.916187 -30.287825 -34.011517 -46.272961
3685000000 -22.533222 -104.03484 -43.885895 -32.024357 -43.918423 -32.195267 -34.044598 -47.249401
3690000000 -22.577656 -105.24571 -43.882671 -33.953953 -43.871883 -33.768158 -34.208015 -48.056541
3695000000 -22.616045 -106.71407 -43.858601 -35.114983 -43.860893 -35.878201 -34.208019 -48.573238
3700000000 -22.651325 -107.96051 -43.928143 -37.229496 -43.875889 -37.296162 -34.216232 -49.762459
3705000000 -22.685883 -109.34684 -43.897793 -38.857975 -43.861408 -38.683399 -34.319237 -50.763622
3710000000 -22.72196 -110.80624 -43.857883 -40.68372 -43.843071 -40.60321 -34.361435 -51.194077
3715000000 -22.761381 -112.26485 -43.832191 -42.286915 -43.819023 -42.029163 -34.456955 -51.965847
3720000000 -22.77446 -113.67276 -43.834076 -43.840435 -43.808792 -43.954483 -34.52121 -52.442543
3725000000 -22.819054 -115.14204 -43.774826 -45.813141 -43.78437 -45.891243 -34.508221 -53.149021
3730000000 -22.845753 -116.529 -43.855453 -47.637714 -43.849075 -47.221119 -34.648022 -53.819317
3735000000 -22.881683 -118.10322 -43.745121 -49.281597 -43.781544 -49.24818 -34.689766 -53.830608
3740000000 -22.911102 -119.65391 -43.813229 -50.91098 -43.822399 -50.770958 -34.803909 -54.142662
3745000000 -22.938837 -121.05746 -43.854832 -52.802635 -43.745583 -52.408264 -34.892883 -54.503914
3750000000 -22.963558 -122.60567 -43.811237 -54.080978 -43.773094 -54.44968 -35.027 -55.078976
3755000000 -22.987402 -124.04055 -43.767418 -55.889572 -43.762539 -55.99152 -35.178001 -55.627712
3760000000 -23.006231 -125.61193 -43.813099 -57.611252 -43.780457 -57.547588 -35.255684 -55.524136
3765000000 -23.031841 -127.08707 -43.752438 -59.348156 -43.781487 -59.344032 -35.455753 -56.182781
3770000000 -23.04258 -128.51701 -43.793941 -61.351963 -43.785248 -61.338387 -35.644943 -56.484608
3775000000 -23.068867 -129.911 -43.76318 -62.524467 -43.708782 -62.790039 -35.790813 -56.667599
3780000000 -23.115002 -131.3876 -43.774326 -64.573456 -43.746281 -64.324051 -35.963905 -57.313751
3785000000 -23.141249 -132.71532 -43.751667 -66.066658 -43.730507 -66.365334 -36.209923 -58.001324
3790000000 -23.178093 -134.12859 -43.78688 -67.809746 -43.799404 -68.148918 -36.306286 -58.302456
3795000000 -23.231937 -135.65923 -43.759144 -69.5914 -43.710598 -69.336662 -36.636433 -59.166084
3800000000 -23.259718 -137.061 -43.778 -71.256943 -43.716156 -71.220116 -36.821262 -60.33997
3805000000 -23.283718 -138.6391 -43.772915 -73.003944 -43.730839 -72.993858 -36.978168 -60.840984
3810000000 -23.329418 -139.97343 -43.772232 -74.749908 -43.723057 -74.679039 -37.168915 -62.138958
3815000000 -23.384565 -141.65504 -43.752434 -76.285339 -43.755745 -76.352905 -37.345943 -63.582554
3820000000 -23.441994 -143.12959 -43.790272 -78.199524 -43.793324 -78.074265 -37.590347 -64.788116
3825000000 -23.492418 -144.65544 -43.774216 -79.645927 -43.787083 -79.570427 -37.687832 -66.417473
3830000000 -23.520601 -146.43611 -43.786999 -81.167389 -43.761692 -81.422676 -37.853565 -67.215683
3835000000 -23.558323 -148.07635 -43.715736 -82.670441 -43.791271 -83.338425 -38.010006 -68.058243
3840000000 -23.600924 -149.68169 -43.788315 -84.378014 -43.756176 -84.459801 -38.190079 -69.235085
3845000000 -23.645885 -151.57036 -43.707241 -86.07753 -43.782536 -86.282127 -38.227623 -70.655045
3850000000 -23.675533 -153.30022 -43.830936 -87.841507 -43.802277 -88.031723 -38.369247 -72.298027
3855000000 -23.710922 -154.99969 -43.7589 -89.506416 -43.799885 -89.572189 -38.39262 -73.382378
3860000000 -23.72357 -156.73926 -43.764275 -91.324562 -43.768799 -91.541122 -38.519886 -73.985207
3865000000 -23.74942 -158.57707 -43.812454 -92.994209 -43.794743 -93.136871 -38.71204 -75.339066
3870000000 -23.758917 -160.32996 -43.771183 -94.49456 -43.798168 -95.078949 -38.835316 -75.643295
3875000000 -23.774889 -162.09303 -43.809128 -96.523758 -43.804592 -96.342178 -38.970104 -76.551392
3880000000 -23.783976 -163.7989 -43.81839 -98.185165 -43.849819 -97.830956 -39.07848 -77.353004
3885000000 -23.777811 -165.49419 -43.824173 -99.406975 -43.780048 -99.787941 -39.295887 -77.76403
3890000000 -23.771343 -167.04224 -43.818409 -101.11953 -43.798187 -101.70818 -39.388626 -78.829094
3895000000 -23.779478 -168.6857 -43.747547 -103.14561 -43.822742 -102.82076 -39.685673 -79.25032
3900000000 -23.77323 -170.30164 -43.811619 -104.98062 -43.80127 -104.59337 -39.860912 -80.045761
3905000000 -23.771402 -171.94336 -43.856964 -106.34126 -43.826485 -106.17365 -40.198032 -80.102737
3910000000 -23.773094 -173.51843 -43.840649 -107.86816 -43.800365 -107.86802 -40.419842 -82.497658
3915000000 -23.786533 -175.09309 -43.91135 -109.20346 -43.824795 -109.67229 -40.612572 -82.886444
3920000000 -23.797699 -176.70676 -43.866856 -111.22105 -43.824375 -110.92716 -40.840836 -84.52063
3925000000 -23.810024 -178.27971 -43.90358 -112.81152 -43.864353 -112.68781 -41.186489 -85.06797
3930000000 -23.820927 -179.8976 -43.812237 -114.1924 -43.865223 -114.22963 -41.410027 -87.503464
3935000000 -23.837986 178.47322 -43.839241 -115.75459 -43.819359 -116.02451 -41.754654 -88.863197
3940000000 -23.875076 176.71875 -43.846298 -117.78767 -43.85239 -117.38672 -41.996555 -90.911812
3945000000 -23.879259 175.02498 -43.875961 -119.32786 -43.847614 -119.28059 -42.229015 -91.875343
3950000000 -23.903503 173.32648 -43.844486 -121.22021 -43.825546 -120.82393 -42.484623 -93.699776
3955000000 -23.909437 171.51257 -43.854889 -122.26615 -43.872299 -122.36183 -42.752151 -95.68412
3960000000 -23.923298 169.74628 -43.870098 -124.134 -43.853443 -124.20065 -42.877178 -97.589455
3965000000 -23.910734 167.92436 -43.905594 -125.86438 -43.844101 -125.75458 -42.95776 -99.767731
3970000000 -23.933256 166.02254 -43.886181 -127.11678 -43.812115 -127.02287 -43.118771 -102.09729
3975000000 -23.903316 164.08763 -43.893486 -128.82573 -43.829437 -129.11856 -43.141357 -103.83688
3980000000 -23.910217 162.29791 -43.84547 -130.63104 -43.889889 -130.15488 -43.291512 -105.49337
3985000000 -23.866531 160.38158 -43.903236 -132.06046 -43.863319 -132.44839 -43.468998 -107.27973
3990000000 -23.851723 158.52278 -43.895027 -133.81807 -43.879295 -133.71135 -43.692368 -109.30275
3995000000 -23.827564 156.68251 -43.878693 -135.38971 -43.895786 -135.19238 -44.073055 -111.01376
4000000000 -23.785736 154.8763 -43.883171 -136.79546 -43.83831 -137.06325 -44.104649 -112.88487
4005000000 -23.741692 153.16286 -43.891113 -138.30934 -43.885597 -138.95131 -44.307484 -114.25014
4010000000 -23.692158 151.34319 -43.928387 -140.06682 -43.922752 -140.07094 -44.657444 -115.68803
4015000000 -23.652578 149.51802 -43.912102 -141.64456 -43.938499 -141.73763 -44.779453 -117.57211
