!Agilent Technologies,N5242A,MY48420904,Z.10.24.74
!Agilent N5242A: Z.10.24.74
!Date: Friday, October 31, 2014 08:08:30
!Correction: S22(Full 2 Port(2,4)) 
!S42(Full 2 Port(2,4)) 
!S24(Full 2 Port(2,4)) 
!S44(Full 2 Port(2,4)) 
!S2P File: Measurements: S22, S42, S24, S44:
# Hz S  dB   R 50
500000000 -40.588757 -9.8606071 -35.158325 90.472885 -35.188396 89.462387 -19.049881 56.288612
505000000 -40.570194 -10.627785 -35.163185 87.396019 -35.310207 87.344582 -19.129883 54.983639
510000000 -40.574085 -15.300266 -35.224976 85.355621 -35.260632 85.932129 -19.218536 53.388924
515000000 -40.867603 -15.335375 -35.240303 83.680161 -35.181988 83.527275 -19.313637 52.074963
520000000 -41.087914 -18.113543 -35.39341 81.140671 -35.262379 80.447197 -19.423826 50.601044
525000000 -40.881863 -18.835361 -35.378155 78.631027 -35.183655 78.455681 -19.502266 49.253082
530000000 -41.292809 -21.001698 -35.329842 76.605827 -35.354507 76.749039 -19.609724 47.754513
535000000 -40.954674 -20.522648 -35.242691 74.162758 -35.271179 74.270828 -19.654566 46.39616
540000000 -40.938789 -21.990208 -35.324207 72.291908 -35.317059 72.155525 -19.769205 44.895634
545000000 -41.268852 -24.22121 -35.379131 69.544014 -35.385258 69.903328 -19.857069 43.569897
550000000 -41.724789 -24.209595 -35.316143 68.206215 -35.279392 67.830238 -19.977037 42.394901
555000000 -41.678749 -27.605371 -35.273552 65.504532 -35.302303 65.926743 -20.051065 40.96925
560000000 -41.391239 -28.268353 -35.412487 62.819847 -35.289249 63.297932 -20.166031 39.699997
565000000 -41.807697 -33.958035 -35.353752 61.428074 -35.233036 60.824265 -20.274269 38.624001
570000000 -42.021801 -36.300171 -35.383472 58.621006 -35.22348 58.551373 -20.381914 37.250992
575000000 -41.85117 -37.319435 -35.301914 56.259678 -35.371071 55.818398 -20.499119 35.976215
580000000 -41.716541 -39.10141 -35.341022 54.144688 -35.387314 54.379498 -20.614195 34.647842
585000000 -41.932545 -42.307304 -35.335247 52.429356 -35.313187 51.802189 -20.746752 33.431427
590000000 -41.872189 -44.501961 -35.366524 49.584816 -35.396713 49.78928 -20.894157 32.093643
595000000 -41.852577 -44.701679 -35.396542 47.945293 -35.385265 47.508408 -20.977663 30.75363
600000000 -42.044617 -49.602337 -35.360111 45.295586 -35.356277 44.82666 -21.118858 29.580009
605000000 -42.622761 -49.505932 -35.39394 43.125301 -35.457909 42.416885 -21.237448 28.268501
610000000 -42.750568 -52.249466 -35.295319 40.444302 -35.384079 40.654026 -21.341393 27.108284
615000000 -42.636642 -52.160973 -35.373104 38.191608 -35.325996 37.877399 -21.46953 25.97831
620000000 -42.876205 -56.163811 -35.371731 35.562874 -35.316818 36.463326 -21.622896 24.731527
625000000 -42.94241 -60.686039 -35.394176 33.304512 -35.192299 33.186207 -21.764566 23.520338
630000000 -42.900681 -61.805351 -35.290836 31.293728 -35.313183 31.078075 -21.884546 22.345001
635000000 -43.540646 -66.176628 -35.311584 29.112934 -35.308311 29.19244 -22.036142 21.375778
640000000 -43.1012 -69.619057 -35.223015 25.816982 -35.272488 26.596039 -22.216158 19.90871
645000000 -43.231117 -72.755508 -35.445919 24.984737 -35.249851 24.043919 -22.372929 18.860855
650000000 -43.759762 -72.332947 -35.361927 22.397533 -35.251163 21.757717 -22.552238 17.971025
655000000 -43.788086 -73.398239 -35.202591 20.039804 -35.259411 18.581051 -22.7008 16.343195
660000000 -43.750072 -77.301018 -35.208992 17.581228 -35.285275 17.271084 -22.85363 15.422408
665000000 -44.203056 -83.206192 -35.235146 15.44198 -35.234303 14.736557 -23.035219 14.240168
670000000 -44.749321 -85.267143 -35.237888 12.291496 -35.235008 13.214211 -23.232002 12.986423
675000000 -44.520199 -89.214638 -35.236183 10.042318 -35.128765 10.448058 -23.379894 12.280808
680000000 -44.764828 -95.622932 -35.174896 7.681324 -35.15443 7.857038 -23.606325 11.233251
685000000 -44.018509 -94.635185 -35.156975 5.5399942 -35.209911 6.4377971 -23.74596 10.071
690000000 -44.276508 -99.049828 -35.357735 3.1416333 -35.14315 2.9244792 -23.984932 8.9880409
695000000 -44.747826 -103.94178 -35.18837 0.72945815 -35.111401 1.0752341 -24.190527 7.9816804
700000000 -44.715504 -106.52575 -35.199612 -1.8162242 -35.155823 -1.4442531 -24.421137 6.9082112
705000000 -45.110443 -107.10069 -35.073921 -4.6411767 -35.178349 -4.3575964 -24.638239 5.5076156
710000000 -45.23851 -114.88053 -35.229553 -6.2246094 -35.130093 -6.0903525 -24.863134 4.4491196
715000000 -45.666698 -118.96717 -35.072071 -8.7371159 -35.146824 -8.4221497 -25.089079 3.6533825
720000000 -44.961124 -123.62524 -35.113419 -10.81615 -35.189182 -11.333915 -25.324291 2.4845665
725000000 -45.057369 -128.849 -35.026672 -13.56424 -35.161949 -13.454126 -25.610136 1.7656398
730000000 -45.817905 -136.61787 -35.05267 -15.994258 -35.055328 -15.661769 -25.888453 0.54313892
735000000 -45.299049 -136.72482 -35.005466 -18.463354 -34.963268 -18.854071 -26.137465 -0.44960147
740000000 -45.043228 -143.49512 -34.943634 -20.458525 -35.071083 -20.772005 -26.455956 -1.3201298
745000000 -44.965599 -148.51898 -34.975426 -22.915867 -34.942036 -22.841831 -26.810186 -2.2979317
750000000 -44.948212 -149.29228 -34.867294 -25.080706 -34.984356 -25.072441 -27.132488 -3.295521
755000000 -44.71505 -156.69025 -34.901535 -27.674519 -34.997875 -28.077539 -27.393143 -3.9863465
760000000 -44.87735 -162.24588 -34.903797 -30.276121 -34.981598 -29.897903 -27.704157 -5.093648
765000000 -44.726154 -162.33267 -34.899162 -32.347748 -34.963375 -32.068619 -28.044563 -6.1923313
770000000 -44.555298 -170.63257 -34.87656 -35.007809 -34.902397 -34.776772 -28.457609 -7.0498753
775000000 -44.800896 -174.73227 -34.94165 -37.395981 -34.788544 -36.983311 -28.842535 -7.9272594
780000000 -44.491962 -178.35579 -34.832912 -39.570721 -34.824142 -39.937653 -29.285191 -7.9711518
785000000 -43.810627 177.47522 -34.844391 -42.020157 -34.724941 -42.07655 -29.708731 -9.0134964
790000000 -43.538757 175.82874 -34.810406 -45.101212 -34.871037 -44.987309 -30.188606 -9.5448914
795000000 -43.60318 171.65767 -34.749466 -47.159019 -34.86256 -47.19455 -30.688526 -10.135843
800000000 -43.204601 167.73883 -34.691696 -49.577488 -34.725227 -49.749565 -31.27076 -10.604837
805000000 -43.025566 162.39951 -34.751778 -52.327175 -34.711086 -51.905323 -31.804266 -10.534792
810000000 -42.858589 162.47382 -34.73489 -54.662579 -34.733009 -54.092236 -32.518406 -10.951761
815000000 -42.716747 156.04616 -34.6362 -56.567783 -34.698517 -56.648216 -33.093079 -10.979703
820000000 -42.660397 152.59167 -34.53875 -59.278728 -34.615009 -59.646873 -33.879326 -11.321712
825000000 -42.239601 150.58951 -34.533276 -61.932919 -34.648582 -61.925426 -34.595459 -10.348346
830000000 -42.355225 146.08156 -34.552963 -64.020828 -34.590973 -64.317314 -35.377422 -9.23207
835000000 -41.767357 143.58452 -34.633129 -66.708984 -34.471626 -66.74337 -36.503487 -7.469286
840000000 -41.263115 138.5186 -34.424129 -68.933708 -34.550648 -69.388878 -37.2565 -5.138948
845000000 -41.243176 137.61691 -34.461548 -71.554985 -34.488365 -71.748802 -38.453819 -2.854847
850000000 -40.550541 133.89822 -34.486309 -74.362564 -34.474342 -74.615982 -39.730385 2.0493391
855000000 -40.543774 131.17352 -34.416256 -77.006454 -34.401909 -76.291451 -41.082684 7.3269677
860000000 -40.384254 129.33479 -34.331394 -79.359482 -34.431965 -78.392189 -42.562073 17.097795
865000000 -40.341003 125.92616 -34.343674 -81.914429 -34.337437 -81.911827 -43.56506 31.764656
870000000 -40.209465 123.15121 -34.406853 -83.893448 -34.355648 -84.235542 -44.316143 45.931217
875000000 -40.117805 120.53558 -34.237057 -86.437683 -34.257481 -86.40361 -43.792053 62.211864
880000000 -39.945511 117.59708 -34.151638 -89.244629 -34.245747 -88.895912 -43.155411 75.39653
885000000 -39.608002 114.38399 -34.278427 -91.374474 -34.185871 -91.853249 -41.684731 85.396378
890000000 -39.066143 113.08395 -34.183189 -93.838959 -34.162834 -93.878487 -40.095058 92.9394
895000000 -38.882477 110.5566 -34.148163 -96.875015 -34.207272 -96.352669 -38.908756 97.858665
900000000 -38.894356 108.35628 -34.041336 -99.179474 -34.129337 -99.563744 -37.602314 102.41599
905000000 -38.555099 105.34123 -34.06966 -101.38052 -34.037277 -101.69978 -36.361526 103.82461
910000000 -38.310448 102.45756 -34.020344 -104.68247 -34.115738 -104.69896 -35.331581 106.16611
915000000 -38.33733 100.82993 -34.001881 -106.83476 -33.977032 -107.22265 -34.46907 106.51766
920000000 -38.058899 99.606613 -33.804188 -109.65149 -34.024391 -109.27935 -33.682594 107.36613
925000000 -38.056053 96.692703 -33.978287 -111.91763 -33.912052 -112.15657 -32.734524 108.01447
930000000 -37.957993 94.890411 -33.895084 -113.95341 -33.90284 -114.47148 -32.009987 108.36021
935000000 -37.683647 90.535751 -33.868088 -117.26589 -33.832573 -116.47106 -31.377487 107.65322
940000000 -37.519203 88.857521 -33.849285 -119.56831 -33.884895 -119.64024 -30.839514 107.2121
945000000 -37.347565 86.965279 -33.786236 -121.93098 -33.834881 -122.02789 -30.22839 106.54538
950000000 -37.106251 84.762215 -33.712738 -125.30654 -33.746841 -125.02158 -29.592993 105.6427
955000000 -36.908783 84.054695 -33.739788 -127.68364 -33.697044 -128.21854 -29.110298 104.83823
960000000 -36.73204 81.695526 -33.722252 -130.10089 -33.658039 -130.49185 -28.667618 104.11421
965000000 -36.783936 80.295517 -33.606606 -132.60547 -33.700233 -133.13785 -28.190434 102.83207
970000000 -36.484634 78.438889 -33.616753 -135.70366 -33.611988 -135.91702 -27.747299 102.22015
975000000 -36.420826 75.964478 -33.658627 -138.24065 -33.58403 -138.44212 -27.320593 101.27364
980000000 -36.233921 73.820038 -33.564659 -140.95157 -33.493382 -140.91174 -26.908699 100.36298
985000000 -36.1661 72.806572 -33.566639 -143.49396 -33.522133 -143.66185 -26.546055 99.181122
990000000 -35.969727 70.379715 -33.552608 -146.0195 -33.555122 -146.35301 -26.2057 97.898018
995000000 -35.797626 67.75135 -33.520039 -148.94473 -33.462029 -148.63098 -25.851896 96.787384
1000000000 -35.77002 65.997421 -33.422359 -151.28299 -33.440338 -151.24989 -25.533339 95.550499
1005000000 -35.719212 64.701317 -33.396263 -153.95029 -33.39249 -154.18561 -25.191082 93.86087
1010000000 -35.597958 63.474998 -33.395283 -157.07693 -33.376537 -157.05417 -24.895205 92.486336
1015000000 -35.483181 61.531605 -33.344994 -159.78908 -33.362354 -160.07581 -24.644302 91.426422
1020000000 -35.322823 59.577049 -33.287403 -162.00912 -33.312889 -162.38293 -24.317465 90.1017
1025000000 -35.38702 59.003067 -33.316643 -165.02806 -33.323414 -164.86581 -24.001186 88.690239
1030000000 -35.24617 56.720131 -33.275562 -168.05101 -33.3083 -167.76735 -23.774317 87.248848
1035000000 -35.174412 54.573559 -33.247425 -170.64618 -33.18705 -170.47952 -23.507303 86.237869
1040000000 -35.008381 52.336575 -33.194714 -173.3291 -33.201775 -173.517 -23.317165 85.021278
1045000000 -35.075851 51.158588 -33.19437 -176.30156 -33.268673 -176.50018 -23.082333 83.693192
1050000000 -35.004223 48.77578 -33.146244 -178.91441 -33.047352 -179.40442 -22.857409 82.027756
1055000000 -34.825924 47.761833 -33.172184 178.0331 -33.095753 178.60367 -22.638288 80.733658
1060000000 -34.697521 46.009571 -33.170639 175.81458 -33.187542 175.24965 -22.490343 79.23745
1065000000 -34.654339 44.296062 -33.126251 172.75813 -33.143684 172.83151 -22.294304 77.669128
1070000000 -34.526661 42.411457 -33.094479 170.12952 -33.06435 170.15359 -22.114389 76.093147
1075000000 -34.530422 40.778122 -33.018871 167.57814 -33.015266 166.99011 -21.923262 74.659966
1080000000 -34.295033 39.111717 -33.031746 164.14294 -33.021122 164.62424 -21.753756 73.141495
1085000000 -34.403614 37.827106 -33.052425 161.6198 -32.985245 161.30717 -21.599371 71.781448
1090000000 -34.229866 35.431217 -32.992432 158.7999 -33.014057 158.37349 -21.450407 70.259979
1095000000 -34.246429 33.995758 -33.018772 155.52586 -33.036835 156.29144 -21.279924 68.689766
1100000000 -34.023033 32.571365 -33.0131 153.15793 -33.034443 152.92123 -21.180235 67.158852
1105000000 -34.071011 30.413986 -32.98386 150.42152 -32.991081 150.58366 -21.062319 65.69854
1110000000 -33.86145 29.808519 -32.971638 147.21693 -32.990517 147.87236 -20.935709 64.106316
1115000000 -33.910896 28.075071 -33.018303 145.12486 -32.967991 144.80518 -20.828794 62.459404
1120000000 -33.849937 26.510958 -33.00816 141.7733 -33.004936 141.91058 -20.744694 60.977833
1125000000 -33.783726 24.867563 -32.966522 138.75061 -32.97543 138.94032 -20.624754 59.397675
1130000000 -33.660538 23.739609 -33.010456 136.41017 -32.934311 136.22865 -20.550137 57.821362
1135000000 -33.685425 22.894438 -32.966145 133.57881 -33.026379 133.5509 -20.443649 56.206825
1140000000 -33.691532 20.63648 -33.018112 130.86859 -32.938389 130.44543 -20.366375 54.769081
1145000000 -33.717258 19.31646 -32.977894 127.82989 -32.995453 128.66357 -20.29524 53.175926
1150000000 -33.744701 17.196899 -33.020084 125.12766 -33.00156 124.68972 -20.26045 51.609482
1155000000 -33.581654 15.587148 -32.981213 122.11308 -33.013752 122.39713 -20.161541 50.071556
1160000000 -33.489891 14.637478 -32.93343 119.44733 -33.002453 119.68449 -20.145571 48.404243
1165000000 -33.403713 12.775714 -32.990841 116.96515 -33.05257 116.33302 -20.093197 46.992405
1170000000 -33.338428 10.918494 -33.049118 113.81435 -32.980549 113.34191 -20.054346 45.362675
1175000000 -33.257149 9.5015211 -32.986195 111.02477 -33.066944 111.02082 -20.043148 43.860615
1180000000 -33.256638 8.3303099 -32.999928 107.89589 -33.030716 108.21912 -19.977167 42.235184
1185000000 -33.225311 6.8432174 -33.057926 105.39019 -33.076485 105.3303 -19.967623 40.839199
1190000000 -33.252789 5.1107168 -33.063023 102.59467 -33.145157 102.93528 -19.910719 39.263916
1195000000 -33.231018 3.9319351 -33.154209 99.751366 -33.102051 99.45015 -19.924576 37.752171
1200000000 -33.332268 1.7791035 -33.171356 96.93364 -33.093754 97.193352 -19.924301 36.246761
1205000000 -33.305401 0.29046205 -33.13224 94.050346 -33.117878 94.388771 -19.924231 34.659607
1210000000 -33.258572 -2.2852607 -33.191757 91.429985 -33.236702 91.51165 -19.938217 33.071033
1215000000 -33.191864 -3.6902714 -33.196747 89.080734 -33.217777 88.987862 -19.961016 31.688076
1220000000 -33.191807 -5.3899083 -33.247456 85.935135 -33.225441 86.203377 -19.956779 30.118761
1225000000 -33.017647 -6.6798592 -33.267109 83.426117 -33.25906 83.588516 -19.975578 28.427841
1230000000 -33.042656 -7.8792782 -33.317402 81.167816 -33.249027 80.736832 -20.002573 26.97694
1235000000 -33.102676 -9.4241743 -33.323158 78.134506 -33.26844 78.029305 -20.03087 25.364054
1240000000 -33.070988 -10.708764 -33.320644 75.116966 -33.297855 75.697266 -20.048183 24.031027
1245000000 -33.095631 -12.683551 -33.415089 72.351395 -33.322014 72.661812 -20.093447 22.518909
1250000000 -33.127583 -14.829546 -33.352345 70.258263 -33.406906 69.957825 -20.116293 21.119392
1255000000 -33.225792 -15.987258 -33.43375 66.875748 -33.36911 67.137123 -20.18116 19.602709
1260000000 -33.155987 -17.865036 -33.46722 64.770531 -33.431816 64.493629 -20.242575 18.27113
1265000000 -33.104889 -19.803535 -33.473293 62.011745 -33.471531 61.848621 -20.288103 17.004662
1270000000 -33.174805 -20.795908 -33.548466 59.669292 -33.566414 59.041092 -20.35743 15.52988
1275000000 -33.176693 -22.799913 -33.504799 56.557182 -33.585129 56.604362 -20.436913 14.090282
1280000000 -33.203369 -25.042664 -33.52013 54.215931 -33.597569 54.128292 -20.52527 12.591789
1285000000 -33.167484 -25.949492 -33.613701 51.340229 -33.630219 50.910988 -20.583549 11.090597
1290000000 -33.115913 -26.847218 -33.638248 48.962967 -33.609077 48.894032 -20.689348 9.7324047
1295000000 -33.211014 -28.638231 -33.618031 46.43084 -33.664627 46.034031 -20.773396 8.2724962
1300000000 -33.417725 -29.753168 -33.651192 43.624687 -33.624702 43.486679 -20.858597 6.9396844
1305000000 -33.379787 -32.493652 -33.669514 40.803596 -33.656639 41.541733 -20.941048 5.5850616
1310000000 -33.492222 -33.204758 -33.79612 38.578018 -33.76968 38.407108 -21.03862 4.2069392
1315000000 -33.592869 -35.760216 -33.795612 36.605373 -33.77309 36.217377 -21.135647 2.9225259
1320000000 -33.673771 -37.165195 -33.772266 33.396351 -33.803799 34.030762 -21.269857 1.3478079
1325000000 -33.644127 -38.845428 -33.856167 31.205523 -33.834572 31.260643 -21.407993 0.28283855
1330000000 -33.609245 -40.583981 -33.880302 28.505562 -33.864861 28.529858 -21.510416 -1.3275502
1335000000 -33.698559 -42.217579 -33.865711 25.659323 -33.984035 26.402754 -21.654034 -2.8459315
1340000000 -33.926071 -43.30452 -33.913601 23.715055 -33.944157 23.273903 -21.762583 -4.0351806
1345000000 -33.95483 -44.331348 -33.941841 20.810621 -33.933842 20.664061 -21.880814 -5.5021753
1350000000 -33.902348 -46.176357 -33.93166 18.267521 -33.991699 18.671028 -22.010521 -6.8336043
1355000000 -34.054314 -47.496372 -33.953266 15.992489 -34.045513 16.004986 -22.172136 -8.1316566
1360000000 -34.229385 -49.971485 -34.033115 13.986697 -33.987835 13.087586 -22.262331 -9.5534611
1365000000 -34.36269 -51.570683 -33.995621 10.886793 -33.982552 11.411108 -22.435373 -10.777151
1370000000 -34.523251 -53.185848 -34.000877 8.4127331 -34.054401 8.9011135 -22.616882 -12.170977
1375000000 -34.54829 -55.355507 -34.069008 6.341217 -34.067291 5.7209945 -22.804712 -13.331929
1380000000 -34.517593 -56.570477 -34.097023 3.9304161 -34.206043 3.7559378 -22.971004 -14.859898
1385000000 -34.62661 -59.3027 -34.117485 1.021681 -34.057156 1.1347588 -23.147749 -16.207943
1390000000 -34.829449 -60.018322 -34.097946 -0.99698853 -34.165901 -1.1183808 -23.348381 -17.573063
1395000000 -34.949734 -61.421741 -34.169994 -3.0619242 -34.12059 -3.7732501 -23.523602 -19.24659
1400000000 -35.150482 -62.613636 -34.224895 -6.4013901 -34.138416 -6.0018864 -23.69622 -20.569027
1405000000 -35.316971 -63.931179 -34.188614 -8.4949322 -34.218658 -8.4613714 -23.931332 -22.131817
1410000000 -35.507107 -66.018356 -34.18763 -10.609324 -34.120014 -10.976427 -24.078119 -23.56448
1415000000 -35.565575 -66.569214 -34.189037 -12.968556 -34.149906 -13.424604 -24.284443 -24.845795
1420000000 -35.921722 -68.674591 -34.185463 -15.904478 -34.169167 -15.659404 -24.533504 -26.297308
1425000000 -35.982155 -70.157204 -34.247574 -17.687569 -34.299969 -18.481258 -24.762648 -27.695021
1430000000 -36.091232 -72.038086 -34.300182 -20.264124 -34.212818 -20.17569 -25.060244 -28.902561
1435000000 -36.322044 -74.377151 -34.230576 -22.517866 -34.131313 -23.341179 -25.294186 -30.921093
1440000000 -36.501404 -76.078232 -34.173328 -25.472322 -34.19199 -25.440332 -25.628967 -32.51717
1445000000 -36.539619 -77.496254 -34.261772 -27.66362 -34.160152 -27.99185 -25.854452 -34.397346
1450000000 -36.739681 -76.953224 -34.178188 -30.33761 -34.247364 -30.137995 -26.163683 -35.880829
1455000000 -36.970432 -79.906517 -34.184769 -32.184315 -34.268417 -32.269825 -26.469511 -37.983311
1460000000 -37.199646 -80.708061 -34.258301 -34.403152 -34.24276 -34.76656 -26.720943 -39.864681
1465000000 -37.407448 -82.004105 -34.14822 -37.34618 -34.287544 -37.182339 -27.061218 -42.032341
1470000000 -38.024246 -83.573853 -34.240383 -39.248844 -34.214035 -39.2094 -27.357456 -43.622871
1475000000 -38.127644 -86.550529 -34.18219 -41.88068 -34.173149 -42.19236 -27.660101 -45.617252
1480000000 -38.552937 -87.592209 -34.239281 -44.870564 -34.248444 -44.06839 -28.015903 -47.389236
1485000000 -38.780323 -88.880013 -34.147018 -46.347408 -34.206284 -47.03067 -28.426918 -49.569027
1490000000 -38.950203 -91.854965 -34.1511 -49.066067 -34.240757 -49.325863 -28.839445 -51.790749
1495000000 -38.834347 -92.327171 -34.136921 -51.339092 -34.144745 -52.480751 -29.30757 -54.458206
1500000000 -39.303516 -94.131729 -34.140736 -53.760906 -34.136635 -53.761047 -29.743851 -57.0065
1505000000 -39.559727 -91.303741 -34.083038 -56.522339 -34.189972 -56.524429 -30.253971 -60.589878
1510000000 -40.069439 -93.994896 -34.182316 -58.778595 -34.08633 -59.145149 -30.678295 -63.882809
1515000000 -40.485062 -93.532654 -34.091774 -61.76202 -34.051048 -60.577782 -31.14184 -67.436264
1520000000 -40.955353 -95.780045 -34.081085 -63.631557 -34.072285 -63.427891 -31.661308 -70.79361
1525000000 -41.401817 -97.80201 -34.044716 -66.136024 -34.076515 -65.938423 -32.214573 -75.42926
